<Qucs Dataset 25.1.2>
<indep time 209>
0.000000000000e+00
4.000000000000e-07
4.094439244011e-07
4.283317732033e-07
4.661074708078e-07
5.416588660167e-07
6.927616564346e-07
9.949672372702e-07
1.497422681002e-06
2.502333568466e-06
3.910346436004e-06
5.831505665791e-06
8.308324120772e-06
1.161110692960e-05
1.592619207549e-05
2.102861120064e-05
2.717564033254e-05
3.466213004241e-05
4.438345555336e-05
5.745009841444e-05
7.685516028422e-05
1.084861157751e-04
1.484861157751e-04
1.778550290656e-04
1.894127983290e-04
1.975902810909e-04
2.041205383605e-04
2.111267669508e-04
2.211390349466e-04
2.411635709381e-04
2.684788006761e-04
3.084788006761e-04
3.225344406694e-04
3.318032731259e-04
3.383520455995e-04
3.451019376830e-04
3.520779914991e-04
3.608684985229e-04
3.712632742343e-04
3.920528256572e-04
4.142115802415e-04
4.542115802415e-04
4.942115802415e-04
5.342115802415e-04
5.742115802415e-04
6.142115802415e-04
6.542115802415e-04
6.744822231084e-04
6.864615204367e-04
6.931310347451e-04
6.995221902977e-04
7.058320894057e-04
7.127015647995e-04
7.264405155872e-04
7.470367028054e-04
7.870367028054e-04
8.204229121237e-04
8.335869772533e-04
8.405314642219e-04
8.482722692093e-04
8.554922997274e-04
8.659448168141e-04
8.771811602565e-04
8.996538471413e-04
9.256477222267e-04
9.656477222267e-04
1.005647722227e-03
1.045647722227e-03
1.085647722227e-03
1.125647722227e-03
1.165647722227e-03
1.182933842458e-03
1.191462116880e-03
1.199907689880e-03
1.205393668219e-03
1.212539988747e-03
1.226832629804e-03
1.245691310934e-03
1.283408673195e-03
1.323408673195e-03
1.337344837007e-03
1.346312464890e-03
1.353238575285e-03
1.360869879164e-03
1.372461009374e-03
1.384562563625e-03
1.408765672126e-03
1.435984071364e-03
1.475984071364e-03
1.515984071364e-03
1.555984071364e-03
1.595984071364e-03
1.635984071364e-03
1.675984071364e-03
1.689553672271e-03
1.698210189786e-03
1.705279150627e-03
1.712953533386e-03
1.722162288366e-03
1.740579798326e-03
1.760963166477e-03
1.800963166477e-03
1.817994817346e-03
1.829661893321e-03
1.835452702263e-03
1.841489661667e-03
1.848688315132e-03
1.856958568318e-03
1.864967592767e-03
1.879055656718e-03
1.893415978520e-03
1.922136622125e-03
1.959907197861e-03
1.999907197861e-03
2.039907197861e-03
2.079907197861e-03
2.119907197861e-03
2.159907197861e-03
2.181254961486e-03
2.189734342206e-03
2.198508077266e-03
2.204619174842e-03
2.211432096726e-03
2.221878601015e-03
2.242771609593e-03
2.267060616573e-03
2.307060616573e-03
2.320977417202e-03
2.330697191430e-03
2.336474135740e-03
2.342734871541e-03
2.350562611464e-03
2.358099205022e-03
2.368130950434e-03
2.388194441259e-03
2.407425916366e-03
2.445888866581e-03
2.485888866581e-03
2.525888866581e-03
2.565888866581e-03
2.605888866581e-03
2.645888866581e-03
2.685888866581e-03
2.699583303882e-03
2.712544964790e-03
2.722724060683e-03
2.733827767201e-03
2.756035180237e-03
2.780226052998e-03
2.820226052998e-03
2.830723134352e-03
2.838966950521e-03
2.846536147304e-03
2.853208161141e-03
2.860455201824e-03
2.871066186200e-03
2.882150998744e-03
2.903307582473e-03
2.925937574938e-03
2.962366169742e-03
3.002366169742e-03
3.042366169742e-03
3.082366169742e-03
3.122366169742e-03
3.162366169742e-03
3.178206512984e-03
3.188012500205e-03
3.194279399659e-03
3.200551283827e-03
3.206694763862e-03
3.215343791565e-03
3.229566104120e-03
3.258010729231e-03
3.287977381630e-03
3.316305122057e-03
3.327933939004e-03
3.334835984274e-03
3.341207016626e-03
3.346425287503e-03
3.353568318442e-03
3.363737312602e-03
3.375180042335e-03
3.398065501803e-03
3.424119501430e-03
3.464119501430e-03
3.504119501430e-03
3.544119501430e-03
3.584119501430e-03
3.624119501430e-03
3.664119501430e-03
3.681952503449e-03
3.690598781666e-03
3.699655488918e-03
3.705621013671e-03
3.712544948920e-03
3.725424490227e-03
3.749720383398e-03
3.786414954555e-03
3.820158738181e-03
3.833007596125e-03
3.839744570641e-03
3.847334827349e-03
3.854726127822e-03
3.864153944717e-03
3.875898666160e-03
3.899388109046e-03
3.927263008876e-03
3.967263008876e-03
4.000000000000e-03
</indep>
<dep tran.v(vcc) time>
5.000000000000e+00
5.000000000000e+00
5.000000000000e+00
5.000000000000e+00
5.000000000000e+00
5.000000000000e+00
5.000000000000e+00
5.000000000000e+00
5.000000000000e+00
5.000000000000e+00
5.000000000000e+00
5.000000000000e+00
5.000000000000e+00
5.000000000000e+00
5.000000000000e+00
5.000000000000e+00
5.000000000000e+00
5.000000000000e+00
5.000000000000e+00
5.000000000000e+00
5.000000000000e+00
5.000000000000e+00
5.000000000000e+00
5.000000000000e+00
5.000000000000e+00
5.000000000000e+00
5.000000000000e+00
5.000000000000e+00
5.000000000000e+00
5.000000000000e+00
5.000000000000e+00
5.000000000000e+00
5.000000000000e+00
5.000000000000e+00
5.000000000000e+00
5.000000000000e+00
5.000000000000e+00
5.000000000000e+00
5.000000000000e+00
5.000000000000e+00
5.000000000000e+00
5.000000000000e+00
5.000000000000e+00
5.000000000000e+00
5.000000000000e+00
5.000000000000e+00
5.000000000000e+00
5.000000000000e+00
5.000000000000e+00
5.000000000000e+00
5.000000000000e+00
5.000000000000e+00
5.000000000000e+00
5.000000000000e+00
5.000000000000e+00
5.000000000000e+00
5.000000000000e+00
5.000000000000e+00
5.000000000000e+00
5.000000000000e+00
5.000000000000e+00
5.000000000000e+00
5.000000000000e+00
5.000000000000e+00
5.000000000000e+00
5.000000000000e+00
5.000000000000e+00
5.000000000000e+00
5.000000000000e+00
5.000000000000e+00
5.000000000000e+00
5.000000000000e+00
5.000000000000e+00
5.000000000000e+00
5.000000000000e+00
5.000000000000e+00
5.000000000000e+00
5.000000000000e+00
5.000000000000e+00
5.000000000000e+00
5.000000000000e+00
5.000000000000e+00
5.000000000000e+00
5.000000000000e+00
5.000000000000e+00
5.000000000000e+00
5.000000000000e+00
5.000000000000e+00
5.000000000000e+00
5.000000000000e+00
5.000000000000e+00
5.000000000000e+00
5.000000000000e+00
5.000000000000e+00
5.000000000000e+00
5.000000000000e+00
5.000000000000e+00
5.000000000000e+00
5.000000000000e+00
5.000000000000e+00
5.000000000000e+00
5.000000000000e+00
5.000000000000e+00
5.000000000000e+00
5.000000000000e+00
5.000000000000e+00
5.000000000000e+00
5.000000000000e+00
5.000000000000e+00
5.000000000000e+00
5.000000000000e+00
5.000000000000e+00
5.000000000000e+00
5.000000000000e+00
5.000000000000e+00
5.000000000000e+00
5.000000000000e+00
5.000000000000e+00
5.000000000000e+00
5.000000000000e+00
5.000000000000e+00
5.000000000000e+00
5.000000000000e+00
5.000000000000e+00
5.000000000000e+00
5.000000000000e+00
5.000000000000e+00
5.000000000000e+00
5.000000000000e+00
5.000000000000e+00
5.000000000000e+00
5.000000000000e+00
5.000000000000e+00
5.000000000000e+00
5.000000000000e+00
5.000000000000e+00
5.000000000000e+00
5.000000000000e+00
5.000000000000e+00
5.000000000000e+00
5.000000000000e+00
5.000000000000e+00
5.000000000000e+00
5.000000000000e+00
5.000000000000e+00
5.000000000000e+00
5.000000000000e+00
5.000000000000e+00
5.000000000000e+00
5.000000000000e+00
5.000000000000e+00
5.000000000000e+00
5.000000000000e+00
5.000000000000e+00
5.000000000000e+00
5.000000000000e+00
5.000000000000e+00
5.000000000000e+00
5.000000000000e+00
5.000000000000e+00
5.000000000000e+00
5.000000000000e+00
5.000000000000e+00
5.000000000000e+00
5.000000000000e+00
5.000000000000e+00
5.000000000000e+00
5.000000000000e+00
5.000000000000e+00
5.000000000000e+00
5.000000000000e+00
5.000000000000e+00
5.000000000000e+00
5.000000000000e+00
5.000000000000e+00
5.000000000000e+00
5.000000000000e+00
5.000000000000e+00
5.000000000000e+00
5.000000000000e+00
5.000000000000e+00
5.000000000000e+00
5.000000000000e+00
5.000000000000e+00
5.000000000000e+00
5.000000000000e+00
5.000000000000e+00
5.000000000000e+00
5.000000000000e+00
5.000000000000e+00
5.000000000000e+00
5.000000000000e+00
5.000000000000e+00
5.000000000000e+00
5.000000000000e+00
5.000000000000e+00
5.000000000000e+00
5.000000000000e+00
5.000000000000e+00
5.000000000000e+00
5.000000000000e+00
5.000000000000e+00
5.000000000000e+00
5.000000000000e+00
5.000000000000e+00
5.000000000000e+00
5.000000000000e+00
5.000000000000e+00
5.000000000000e+00
</dep>
<dep tran.v(vee) time>
-5.000000000000e+00
-5.000000000000e+00
-5.000000000000e+00
-5.000000000000e+00
-5.000000000000e+00
-5.000000000000e+00
-5.000000000000e+00
-5.000000000000e+00
-5.000000000000e+00
-5.000000000000e+00
-5.000000000000e+00
-5.000000000000e+00
-5.000000000000e+00
-5.000000000000e+00
-5.000000000000e+00
-5.000000000000e+00
-5.000000000000e+00
-5.000000000000e+00
-5.000000000000e+00
-5.000000000000e+00
-5.000000000000e+00
-5.000000000000e+00
-5.000000000000e+00
-5.000000000000e+00
-5.000000000000e+00
-5.000000000000e+00
-5.000000000000e+00
-5.000000000000e+00
-5.000000000000e+00
-5.000000000000e+00
-5.000000000000e+00
-5.000000000000e+00
-5.000000000000e+00
-5.000000000000e+00
-5.000000000000e+00
-5.000000000000e+00
-5.000000000000e+00
-5.000000000000e+00
-5.000000000000e+00
-5.000000000000e+00
-5.000000000000e+00
-5.000000000000e+00
-5.000000000000e+00
-5.000000000000e+00
-5.000000000000e+00
-5.000000000000e+00
-5.000000000000e+00
-5.000000000000e+00
-5.000000000000e+00
-5.000000000000e+00
-5.000000000000e+00
-5.000000000000e+00
-5.000000000000e+00
-5.000000000000e+00
-5.000000000000e+00
-5.000000000000e+00
-5.000000000000e+00
-5.000000000000e+00
-5.000000000000e+00
-5.000000000000e+00
-5.000000000000e+00
-5.000000000000e+00
-5.000000000000e+00
-5.000000000000e+00
-5.000000000000e+00
-5.000000000000e+00
-5.000000000000e+00
-5.000000000000e+00
-5.000000000000e+00
-5.000000000000e+00
-5.000000000000e+00
-5.000000000000e+00
-5.000000000000e+00
-5.000000000000e+00
-5.000000000000e+00
-5.000000000000e+00
-5.000000000000e+00
-5.000000000000e+00
-5.000000000000e+00
-5.000000000000e+00
-5.000000000000e+00
-5.000000000000e+00
-5.000000000000e+00
-5.000000000000e+00
-5.000000000000e+00
-5.000000000000e+00
-5.000000000000e+00
-5.000000000000e+00
-5.000000000000e+00
-5.000000000000e+00
-5.000000000000e+00
-5.000000000000e+00
-5.000000000000e+00
-5.000000000000e+00
-5.000000000000e+00
-5.000000000000e+00
-5.000000000000e+00
-5.000000000000e+00
-5.000000000000e+00
-5.000000000000e+00
-5.000000000000e+00
-5.000000000000e+00
-5.000000000000e+00
-5.000000000000e+00
-5.000000000000e+00
-5.000000000000e+00
-5.000000000000e+00
-5.000000000000e+00
-5.000000000000e+00
-5.000000000000e+00
-5.000000000000e+00
-5.000000000000e+00
-5.000000000000e+00
-5.000000000000e+00
-5.000000000000e+00
-5.000000000000e+00
-5.000000000000e+00
-5.000000000000e+00
-5.000000000000e+00
-5.000000000000e+00
-5.000000000000e+00
-5.000000000000e+00
-5.000000000000e+00
-5.000000000000e+00
-5.000000000000e+00
-5.000000000000e+00
-5.000000000000e+00
-5.000000000000e+00
-5.000000000000e+00
-5.000000000000e+00
-5.000000000000e+00
-5.000000000000e+00
-5.000000000000e+00
-5.000000000000e+00
-5.000000000000e+00
-5.000000000000e+00
-5.000000000000e+00
-5.000000000000e+00
-5.000000000000e+00
-5.000000000000e+00
-5.000000000000e+00
-5.000000000000e+00
-5.000000000000e+00
-5.000000000000e+00
-5.000000000000e+00
-5.000000000000e+00
-5.000000000000e+00
-5.000000000000e+00
-5.000000000000e+00
-5.000000000000e+00
-5.000000000000e+00
-5.000000000000e+00
-5.000000000000e+00
-5.000000000000e+00
-5.000000000000e+00
-5.000000000000e+00
-5.000000000000e+00
-5.000000000000e+00
-5.000000000000e+00
-5.000000000000e+00
-5.000000000000e+00
-5.000000000000e+00
-5.000000000000e+00
-5.000000000000e+00
-5.000000000000e+00
-5.000000000000e+00
-5.000000000000e+00
-5.000000000000e+00
-5.000000000000e+00
-5.000000000000e+00
-5.000000000000e+00
-5.000000000000e+00
-5.000000000000e+00
-5.000000000000e+00
-5.000000000000e+00
-5.000000000000e+00
-5.000000000000e+00
-5.000000000000e+00
-5.000000000000e+00
-5.000000000000e+00
-5.000000000000e+00
-5.000000000000e+00
-5.000000000000e+00
-5.000000000000e+00
-5.000000000000e+00
-5.000000000000e+00
-5.000000000000e+00
-5.000000000000e+00
-5.000000000000e+00
-5.000000000000e+00
-5.000000000000e+00
-5.000000000000e+00
-5.000000000000e+00
-5.000000000000e+00
-5.000000000000e+00
-5.000000000000e+00
-5.000000000000e+00
-5.000000000000e+00
-5.000000000000e+00
-5.000000000000e+00
-5.000000000000e+00
-5.000000000000e+00
-5.000000000000e+00
-5.000000000000e+00
-5.000000000000e+00
-5.000000000000e+00
-5.000000000000e+00
-5.000000000000e+00
-5.000000000000e+00
</dep>
<dep tran.v(vin) time>
0.000000000000e+00
2.513271477004e-04
2.572609212178e-04
2.691284655144e-04
2.928635425692e-04
3.403336458455e-04
4.352736116254e-04
6.251522805771e-04
9.408445378262e-04
1.572197774439e-03
2.456695942929e-03
3.663223284273e-03
5.217903343204e-03
7.289003804336e-03
9.990029666905e-03
1.317425638183e-02
1.699210800899e-02
2.160709781416e-02
2.752689757762e-02
3.531815264375e-02
4.643452765886e-02
6.300661303110e-02
8.033894574608e-02
8.990067188231e-02
9.284119663378e-02
9.462689496742e-02
9.587373776646e-02
9.703195190857e-02
9.836031278729e-02
9.984591095384e-02
9.932672983300e-02
9.332524889036e-02
8.979323531710e-02
8.707921359270e-02
8.498307315310e-02
8.267203939849e-02
8.012738942475e-02
7.670234051776e-02
7.235122066301e-02
6.274329446563e-02
5.132990854273e-02
2.837447541684e-02
3.636169646491e-03
-2.133061003564e-02
-4.495710904074e-02
-6.575878754413e-02
-8.242859958222e-02
-8.895248497266e-02
-9.213628892585e-02
-9.368381696650e-02
-9.501245111604e-02
-9.617391683017e-02
-9.726647918189e-02
-9.890637577611e-02
-9.998266724435e-02
-9.730453548801e-02
-9.036924636143e-02
-8.652274584578e-02
-8.425339412582e-02
-8.153499927086e-02
-7.882553848387e-02
-7.461720243337e-02
-6.973500425429e-02
-5.895434261728e-02
-4.503605684241e-02
-2.141697000085e-02
3.547823831966e-03
2.828969484544e-02
5.125402028955e-02
7.099786713977e-02
8.628065688571e-02
9.125216412709e-02
9.331190724140e-02
9.508771259879e-02
9.609808291763e-02
9.724285444185e-02
9.894241271197e-02
9.996335678885e-02
9.780490710910e-02
8.955011810190e-02
8.531491522416e-02
8.224173063784e-02
7.968897444854e-02
7.670178392155e-02
7.182967646352e-02
6.633710405105e-02
5.423588092885e-02
3.914657640448e-02
1.503245351752e-02
-1.002621370944e-02
-3.445489705520e-02
-5.671865250274e-02
-7.541856641692e-02
-8.937965443303e-02
-9.287404774531e-02
-9.475213367617e-02
-9.607815462015e-02
-9.730312053938e-02
-9.847422915329e-02
-9.982488499980e-02
-9.976284623341e-02
-9.491690174851e-02
-9.101194637519e-02
-8.773281330823e-02
-8.592906233460e-02
-8.392757722897e-02
-8.138337310291e-02
-7.825529100081e-02
-7.502457108297e-02
-6.888603539902e-02
-6.207407441128e-02
-4.699463805182e-02
-2.492546189511e-02
-5.830930020946e-05
2.481250708247e-02
4.812426239114e-02
6.841219330511e-02
8.440153451128e-02
9.081562246567e-02
9.291607258336e-02
9.481180395746e-02
9.596233687158e-02
9.707816635983e-02
9.844305453772e-02
9.989688109593e-02
9.942601138080e-02
9.364163125147e-02
9.021951704068e-02
8.741879169290e-02
8.559902952931e-02
8.349962358373e-02
8.069341276872e-02
7.780708955642e-02
7.369572135063e-02
6.461239949194e-02
5.494118111176e-02
3.334779270909e-02
8.854674714981e-03
-1.619481505669e-02
-4.022672503798e-02
-6.173104194160e-02
-7.935657044913e-02
-9.199583378229e-02
-9.502441957580e-02
-9.724358350665e-02
-9.853503941902e-02
-9.948418259158e-02
-9.992811170411e-02
-9.820201161705e-02
-9.042213916695e-02
-8.741087524754e-02
-8.477880816402e-02
-8.216169622236e-02
-7.970051767874e-02
-7.686869863059e-02
-7.243664925569e-02
-6.746327864339e-02
-5.708464200443e-02
-4.487337714318e-02
-2.342629279489e-02
1.486653528356e-03
2.630618794288e-02
4.947280782157e-02
6.953086923656e-02
8.522005042078e-02
8.999716779084e-02
9.251070322518e-02
9.393374383109e-02
9.521211875179e-02
9.632100268621e-02
9.763856972790e-02
9.917693253243e-02
9.987335671788e-02
9.716653332546e-02
9.144670637376e-02
8.824865271436e-02
8.612661580015e-02
8.402400218019e-02
8.220138257385e-02
7.956363867864e-02
7.553340566013e-02
7.063064218941e-02
5.975750395486e-02
4.589128742128e-02
2.235389746599e-02
-2.588070078976e-03
-2.736741966262e-02
-5.042717361854e-02
-7.031840279783e-02
-8.579126811634e-02
-9.099822682077e-02
-9.311548812035e-02
-9.503853821582e-02
-9.613749802732e-02
-9.724358118153e-02
-9.881020613488e-02
-9.999984566816e-02
-9.739388343068e-02
-9.044019381398e-02
-8.670469228669e-02
-8.451867915296e-02
-8.187460231404e-02
-7.912085260961e-02
-7.536159367674e-02
-7.031028616090e-02
-5.908912669252e-02
-4.412758978031e-02
-2.042451906845e-02
-9.797174393179e-17
</dep>
<dep tran.v(vout) time>
1.760254202310e-03
2.250419228042e-03
2.262270978178e-03
2.286543063148e-03
2.338601758380e-03
2.457482198551e-03
2.756708919798e-03
3.602754400394e-03
5.716948297919e-03
1.239158406128e-02
2.662137286230e-02
5.370405074124e-02
9.889949377876e-02
1.722400317495e-01
2.829160569345e-01
4.266227722671e-01
6.090551178550e-01
8.367245364872e-01
1.133712480842e+00
1.528195533654e+00
2.095000901486e+00
2.948550045563e+00
3.858477135859e+00
4.375492918173e+00
4.503137741653e+00
4.530014457791e+00
4.538694776734e+00
4.544628683281e+00
4.550394859014e+00
4.555755700193e+00
4.555308310626e+00
4.532356291906e+00
4.499189713519e+00
4.435892420683e+00
4.359248782093e+00
4.261195900292e+00
4.146657610780e+00
3.988271956008e+00
3.783989111434e+00
3.327341831546e+00
2.778083245556e+00
1.659656291138e+00
4.355429401424e-01
-8.151939704929e-01
-2.014909565006e+00
-3.087802907017e+00
-3.966623045193e+00
-4.320226290141e+00
-4.480870685217e+00
-4.518652126340e+00
-4.532441958064e+00
-4.539921704507e+00
-4.545506609519e+00
-4.552088695621e+00
-4.556131130795e+00
-4.549590422518e+00
-4.505473730116e+00
-4.413686192637e+00
-4.325790420905e+00
-4.207159826403e+00
-4.083395639280e+00
-3.887249796609e+00
-3.656786666200e+00
-3.142276650546e+00
-2.469574201576e+00
-1.313635458663e+00
-7.373283051978e-02
1.170377822425e+00
2.341324096064e+00
3.365159407190e+00
4.177689944278e+00
4.446228030167e+00
4.513605967297e+00
4.533674259762e+00
4.539891461382e+00
4.545685019168e+00
4.552463670650e+00
4.556237022225e+00
4.551323511531e+00
4.493713771444e+00
4.372197417497e+00
4.242394332156e+00
4.126669655327e+00
3.988239606707e+00
3.759388885386e+00
3.498727960093e+00
2.918600167622e+00
2.186207666691e+00
1.001661800100e+00
-2.469881455982e-01
-1.479482897906e+00
-2.619172964492e+00
-3.594076603041e+00
-4.342991457527e+00
-4.501853869379e+00
-4.530587977552e+00
-4.539394579751e+00
-4.545559218984e+00
-4.550546171394e+00
-4.555452495860e+00
-4.556029970785e+00
-4.540262548866e+00
-4.513563973859e+00
-4.452945845777e+00
-4.393042902151e+00
-4.312267400085e+00
-4.200343473194e+00
-4.057063330219e+00
-3.906319924329e+00
-3.616562334136e+00
-3.291683811921e+00
-2.564906505967e+00
-1.486231587125e+00
-2.538896777860e-01
9.945714093851e-01
2.180652449717e+00
3.229843696764e+00
4.076173587924e+00
4.424441277004e+00
4.505719934102e+00
4.531637652021e+00
4.539161865856e+00
4.544959254100e+00
4.550764015687e+00
4.555959128744e+00
4.555529613250e+00
4.534194526176e+00
4.505200624816e+00
4.446348897633e+00
4.383459797670e+00
4.297203547501e+00
4.172514252639e+00
4.039679428433e+00
3.847352810978e+00
3.416669137918e+00
2.952417279134e+00
1.903517865902e+00
6.950498323778e-01
-5.565698401922e-01
-1.773322101746e+00
-2.878476012934e+00
-3.802696357022e+00
-4.473242570352e+00
-4.533349636233e+00
-4.545213710445e+00
-4.550692268539e+00
-4.554284018986e+00
-4.556319660112e+00
-4.552130924686e+00
-4.505993610962e+00
-4.443801437350e+00
-4.348157789003e+00
-4.235437139964e+00
-4.123765634155e+00
-3.992574815874e+00
-3.784585088233e+00
-3.548883003281e+00
-3.052325027285e+00
-2.461536039486e+00
-1.412424977204e+00
-1.767861770912e-01
1.070064768728e+00
2.249832211378e+00
3.288330195490e+00
4.120318267322e+00
4.380883361856e+00
4.495170626815e+00
4.522768092601e+00
4.534370781815e+00
4.541081760919e+00
4.547498456662e+00
4.553316292753e+00
4.556463240480e+00
4.549280867909e+00
4.518420395368e+00
4.468939797163e+00
4.403389598422e+00
4.319657394126e+00
4.240272036187e+00
4.120788791644e+00
3.933655500477e+00
3.702671040007e+00
3.184306870019e+00
2.514582569878e+00
1.363313864153e+00
1.251971381145e-01
-1.120142201874e+00
-2.295255938677e+00
