<Qucs Dataset 25.1.2>
<indep time 116>
0.000000000000e+00
4.000000000000e-07
8.000000000000e-07
1.399240597558e-06
2.085152391066e-06
2.890265212302e-06
3.864999483242e-06
4.908425489554e-06
6.459071457858e-06
8.016704466896e-06
1.056677159245e-05
1.333170308635e-05
1.886156607415e-05
2.606705018677e-05
4.047801841201e-05
6.929995486249e-05
1.092999548625e-04
1.492999548625e-04
1.892999548625e-04
2.292999548625e-04
2.606797473112e-04
2.914522200524e-04
3.314522200524e-04
3.714522200524e-04
4.114522200524e-04
4.514522200524e-04
4.914522200524e-04
5.314522200524e-04
5.714522200524e-04
6.114522200524e-04
6.514522200524e-04
6.914522200524e-04
7.314522200524e-04
7.714522200524e-04
8.114522200524e-04
8.514522200524e-04
8.914522200524e-04
9.314522200524e-04
9.714522200524e-04
1.011452220052e-03
1.051452220052e-03
1.091452220052e-03
1.131452220052e-03
1.171452220052e-03
1.211452220052e-03
1.247088787878e-03
1.282426561161e-03
1.322426561161e-03
1.362426561161e-03
1.402426561161e-03
1.442426561161e-03
1.482426561161e-03
1.522426561161e-03
1.562426561161e-03
1.602426561161e-03
1.642426561161e-03
1.682426561161e-03
1.722426561161e-03
1.762426561161e-03
1.802426561161e-03
1.842426561161e-03
1.882426561161e-03
1.922426561161e-03
1.962426561161e-03
2.002426561161e-03
2.042426561161e-03
2.082426561161e-03
2.122426561161e-03
2.162426561161e-03
2.202426561161e-03
2.242426561161e-03
2.279187156979e-03
2.319187156979e-03
2.359187156979e-03
2.399187156979e-03
2.439187156979e-03
2.479187156979e-03
2.519187156979e-03
2.559187156979e-03
2.599187156979e-03
2.639187156979e-03
2.679187156979e-03
2.719187156979e-03
2.759187156979e-03
2.799187156979e-03
2.839187156979e-03
2.879187156979e-03
2.919187156979e-03
2.959187156979e-03
2.999187156979e-03
3.039187156979e-03
3.079187156979e-03
3.119187156979e-03
3.159187156979e-03
3.199187156979e-03
3.239187156979e-03
3.276286818561e-03
3.313565702768e-03
3.353565702768e-03
3.393565702768e-03
3.433565702768e-03
3.473565702768e-03
3.513565702768e-03
3.553565702768e-03
3.593565702768e-03
3.633565702768e-03
3.673565702768e-03
3.713565702768e-03
3.753565702768e-03
3.793565702768e-03
3.833565702768e-03
3.873565702768e-03
3.913565702768e-03
3.953565702768e-03
3.993565702768e-03
4.000000000000e-03
</indep>
<dep tran.v(vcc) time>
5.000000000000e+00
5.000000000000e+00
5.000000000000e+00
5.000000000000e+00
5.000000000000e+00
5.000000000000e+00
5.000000000000e+00
5.000000000000e+00
5.000000000000e+00
5.000000000000e+00
5.000000000000e+00
5.000000000000e+00
5.000000000000e+00
5.000000000000e+00
5.000000000000e+00
5.000000000000e+00
5.000000000000e+00
5.000000000000e+00
5.000000000000e+00
5.000000000000e+00
5.000000000000e+00
5.000000000000e+00
5.000000000000e+00
5.000000000000e+00
5.000000000000e+00
5.000000000000e+00
5.000000000000e+00
5.000000000000e+00
5.000000000000e+00
5.000000000000e+00
5.000000000000e+00
5.000000000000e+00
5.000000000000e+00
5.000000000000e+00
5.000000000000e+00
5.000000000000e+00
5.000000000000e+00
5.000000000000e+00
5.000000000000e+00
5.000000000000e+00
5.000000000000e+00
5.000000000000e+00
5.000000000000e+00
5.000000000000e+00
5.000000000000e+00
5.000000000000e+00
5.000000000000e+00
5.000000000000e+00
5.000000000000e+00
5.000000000000e+00
5.000000000000e+00
5.000000000000e+00
5.000000000000e+00
5.000000000000e+00
5.000000000000e+00
5.000000000000e+00
5.000000000000e+00
5.000000000000e+00
5.000000000000e+00
5.000000000000e+00
5.000000000000e+00
5.000000000000e+00
5.000000000000e+00
5.000000000000e+00
5.000000000000e+00
5.000000000000e+00
5.000000000000e+00
5.000000000000e+00
5.000000000000e+00
5.000000000000e+00
5.000000000000e+00
5.000000000000e+00
5.000000000000e+00
5.000000000000e+00
5.000000000000e+00
5.000000000000e+00
5.000000000000e+00
5.000000000000e+00
5.000000000000e+00
5.000000000000e+00
5.000000000000e+00
5.000000000000e+00
5.000000000000e+00
5.000000000000e+00
5.000000000000e+00
5.000000000000e+00
5.000000000000e+00
5.000000000000e+00
5.000000000000e+00
5.000000000000e+00
5.000000000000e+00
5.000000000000e+00
5.000000000000e+00
5.000000000000e+00
5.000000000000e+00
5.000000000000e+00
5.000000000000e+00
5.000000000000e+00
5.000000000000e+00
5.000000000000e+00
5.000000000000e+00
5.000000000000e+00
5.000000000000e+00
5.000000000000e+00
5.000000000000e+00
5.000000000000e+00
5.000000000000e+00
5.000000000000e+00
5.000000000000e+00
5.000000000000e+00
5.000000000000e+00
5.000000000000e+00
5.000000000000e+00
5.000000000000e+00
5.000000000000e+00
5.000000000000e+00
</dep>
<dep tran.v(vee) time>
-5.000000000000e+00
-5.000000000000e+00
-5.000000000000e+00
-5.000000000000e+00
-5.000000000000e+00
-5.000000000000e+00
-5.000000000000e+00
-5.000000000000e+00
-5.000000000000e+00
-5.000000000000e+00
-5.000000000000e+00
-5.000000000000e+00
-5.000000000000e+00
-5.000000000000e+00
-5.000000000000e+00
-5.000000000000e+00
-5.000000000000e+00
-5.000000000000e+00
-5.000000000000e+00
-5.000000000000e+00
-5.000000000000e+00
-5.000000000000e+00
-5.000000000000e+00
-5.000000000000e+00
-5.000000000000e+00
-5.000000000000e+00
-5.000000000000e+00
-5.000000000000e+00
-5.000000000000e+00
-5.000000000000e+00
-5.000000000000e+00
-5.000000000000e+00
-5.000000000000e+00
-5.000000000000e+00
-5.000000000000e+00
-5.000000000000e+00
-5.000000000000e+00
-5.000000000000e+00
-5.000000000000e+00
-5.000000000000e+00
-5.000000000000e+00
-5.000000000000e+00
-5.000000000000e+00
-5.000000000000e+00
-5.000000000000e+00
-5.000000000000e+00
-5.000000000000e+00
-5.000000000000e+00
-5.000000000000e+00
-5.000000000000e+00
-5.000000000000e+00
-5.000000000000e+00
-5.000000000000e+00
-5.000000000000e+00
-5.000000000000e+00
-5.000000000000e+00
-5.000000000000e+00
-5.000000000000e+00
-5.000000000000e+00
-5.000000000000e+00
-5.000000000000e+00
-5.000000000000e+00
-5.000000000000e+00
-5.000000000000e+00
-5.000000000000e+00
-5.000000000000e+00
-5.000000000000e+00
-5.000000000000e+00
-5.000000000000e+00
-5.000000000000e+00
-5.000000000000e+00
-5.000000000000e+00
-5.000000000000e+00
-5.000000000000e+00
-5.000000000000e+00
-5.000000000000e+00
-5.000000000000e+00
-5.000000000000e+00
-5.000000000000e+00
-5.000000000000e+00
-5.000000000000e+00
-5.000000000000e+00
-5.000000000000e+00
-5.000000000000e+00
-5.000000000000e+00
-5.000000000000e+00
-5.000000000000e+00
-5.000000000000e+00
-5.000000000000e+00
-5.000000000000e+00
-5.000000000000e+00
-5.000000000000e+00
-5.000000000000e+00
-5.000000000000e+00
-5.000000000000e+00
-5.000000000000e+00
-5.000000000000e+00
-5.000000000000e+00
-5.000000000000e+00
-5.000000000000e+00
-5.000000000000e+00
-5.000000000000e+00
-5.000000000000e+00
-5.000000000000e+00
-5.000000000000e+00
-5.000000000000e+00
-5.000000000000e+00
-5.000000000000e+00
-5.000000000000e+00
-5.000000000000e+00
-5.000000000000e+00
-5.000000000000e+00
-5.000000000000e+00
-5.000000000000e+00
-5.000000000000e+00
-5.000000000000e+00
</dep>
<dep tran.v(vin) time>
0.000000000000e+00
3.769907215506e-04
7.539790618228e-04
1.318736206064e-03
1.965153610218e-03
2.723861065396e-03
3.642318168341e-03
4.625348731046e-03
6.085860518232e-03
7.552371389733e-03
9.951632660658e-03
1.255014541623e-02
1.773502498439e-02
2.445792456544e-02
3.773968193417e-02
6.326929377020e-02
9.510430827421e-02
1.209635693202e-01
1.392222444329e-01
1.487330739043e-01
1.496624174519e-01
1.449410526248e-01
1.307811701440e-01
1.084038257637e-01
7.921507032919e-02
4.504894069328e-02
8.052220435192e-03
-2.945045044683e-02
-6.510264121610e-02
-9.666419360700e-02
-1.221519792075e-01
-1.399645067109e-01
-1.489825495042e-01
-1.486394707926e-01
-1.389568274734e-01
-1.205430156366e-01
-9.455504280114e-02
-6.262582887736e-02
-2.676160380353e-02
1.078415125957e-02
4.765229843770e-02
8.152627645209e-02
1.102776586843e-01
1.320998900486e-01
1.456217994916e-01
1.499749067685e-01
1.468974417719e-01
1.347345721812e-01
1.141058339013e-01
8.630740642541e-02
5.308596718741e-02
1.652894139449e-02
-2.106665857544e-02
-5.733856290932e-02
-9.000767445913e-02
-1.170212727976e-01
-1.366819941921e-01
-1.477544832102e-01
-1.495430146453e-01
-1.419352084895e-01
-1.254090911831e-01
-1.010030594553e-01
-7.025063403865e-02
-3.508410292160e-02
2.286891412323e-03
3.951419194821e-02
7.425867048096e-02
1.043372036431e-01
1.278598465750e-01
1.433485851109e-01
1.498302048451e-01
1.474847156410e-01
1.360484701140e-01
1.160637988584e-01
8.878641226778e-02
5.593024886076e-02
1.955978222076e-02
-1.803969747202e-02
-5.450567662727e-02
-8.754686366217e-02
-1.150871592783e-01
-1.353961054161e-01
-1.471976162985e-01
-1.497501595939e-01
-1.428933496194e-01
-1.270580249634e-01
-1.032391773123e-01
-7.293343246340e-02
-3.804501182248e-02
-7.660831689748e-04
3.656098130749e-02
7.159078486652e-02
1.021222761199e-01
1.262370491852e-01
1.424198841828e-01
1.496539540735e-01
1.479586872227e-01
1.381944582976e-01
1.193469513664e-01
9.300043655349e-02
6.081036228024e-02
2.479934930005e-02
-1.276989800228e-02
-4.953676564873e-02
-8.319105612600e-02
-1.116181465916e-01
-1.330318584039e-01
-1.460866892959e-01
-1.499623562301e-01
-1.444153367994e-01
-1.297941706351e-01
-1.070175593803e-01
-7.751664128651e-02
-4.314506753446e-02
-6.062530512770e-03
-1.469576158977e-16
</dep>
<dep tran.v(vout) time>
1.516079448758e+00
1.515507158088e+00
1.514357374887e+00
1.512059034464e+00
1.508235601909e+00
1.502654509696e+00
1.494918039621e+00
1.485936887861e+00
1.471934807843e+00
1.457493962482e+00
1.433607742831e+00
1.407623106937e+00
1.355728181210e+00
1.288402888879e+00
1.155302067275e+00
8.990563711972e-01
5.785049663217e-01
3.168072638077e-01
1.305129226359e-01
3.123809856734e-02
1.858052075009e-02
6.251697750210e-02
2.000897994797e-01
4.203731217411e-01
7.094849227822e-01
1.049293669752e+00
1.418419211201e+00
1.793692309533e+00
2.151512841541e+00
2.469414572486e+00
2.727408172193e+00
2.909294828142e+00
3.003635937482e+00
3.004512135176e+00
2.911861517300e+00
2.731511553975e+00
2.474789487707e+00
2.157830036303e+00
1.800545509061e+00
1.425388028593e+00
1.055927864186e+00
7.153814309446e-01
4.251451579919e-01
2.034569388155e-01
6.424536867130e-02
1.691277987665e-02
4.390451116702e-02
1.614250194860e-01
3.640861894693e-01
6.391118955918e-01
9.692569061391e-01
1.333747148313e+00
1.709705700297e+00
2.073488414145e+00
2.402255356505e+00
2.675333635595e+00
2.875577414115e+00
2.990393848241e+00
3.012577758930e+00
2.940727685802e+00
2.779364822222e+00
2.538622737107e+00
2.233632728429e+00
1.883554399430e+00
1.510387682751e+00
1.137577143910e+00
7.885502816753e-01
4.852358003352e-01
2.466939164615e-01
8.791166687114e-02
1.886716782793e-02
3.837035742824e-02
1.486085895959e-01
3.447744097716e-01
6.145336954265e-01
9.409435340039e-01
1.303488668987e+00
1.679394039606e+00
2.045036041856e+00
2.377443394854e+00
2.655726746862e+00
2.862402815903e+00
2.984483378781e+00
3.014299368905e+00
2.949976091524e+00
2.795556440373e+00
2.560742288580e+00
2.260288577393e+00
1.913073200395e+00
1.540913357633e+00
1.167192777952e+00
8.153940403861e-01
5.076218192475e-01
2.632148657438e-01
9.753010520861e-02
2.097818548737e-02
3.393923276997e-02
1.277134284037e-01
3.124196840858e-01
5.727731837506e-01
8.923836897182e-01
1.251195371707e+00
1.626640713435e+00
1.995147741197e+00
2.333546104350e+00
2.620586000540e+00
2.838220540764e+00
2.972784143599e+00
3.015813995618e+00
2.964612959499e+00
2.822392877142e+00
2.598094535073e+00
2.305807612848e+00
1.963900612883e+00
1.593854084775e+00
1.533139384032e+00
</dep>
<indep v(vcc) 1>
5.000000000000e+00+j0.000000000000e+00
</indep>
<indep v(vee) 1>
-5.000000000000e+00+j0.000000000000e+00
</indep>
<indep v(vin) 1>
0.000000000000e+00+j0.000000000000e+00
</indep>
<indep v(vout) 1>
1.516079000000e+00+j0.000000000000e+00
</indep>
